
T114C 000:284 SEGGER J-Link V4.94j Log File (0000ms, 0271ms total)
T114C 000:284 DLL Compiled: Dec 10 2014 13:52:41 (0000ms, 0271ms total)
T114C 000:284 Logging started @ 2015-03-16 16:57 (0000ms, 0271ms total)
T114C 000:284 JLINK_SetWarnOutHandler(...) (0000ms, 0271ms total)
T114C 000:284 JLINK_OpenEx(...)
Firmware: J-Link V9 compiled Feb 13 2015 20:37:28
Hardware: V9.30
S/N: 269303451
OEM: SEGGER-EDU
Feature(s): FlashBP, GDB  returns O.K. (0265ms, 0536ms total)
T114C 000:549 JLINK_SetErrorOutHandler(...) (0000ms, 0536ms total)
T114C 000:549 JLINK_ExecCommand("ProjectFile = "C:\Users\Gorka\Desktop\P2Proj\JLinkSettings.ini"", ...)Device "UNSPECIFIED" selected.  returns 0x00 (0001ms, 0537ms total)
T114C 000:550 JLINK_ExecCommand("Device = STM32F407ZGTx", ...)Device "UNSPECIFIED" selected.  returns 0x00 (0005ms, 0542ms total)
T114C 000:555 JLINK_ExecCommand("DisableConnectionTimeout", ...)  returns 0x01 (0000ms, 0542ms total)
T114C 000:555 JLINK_GetHardwareVersion()  returns 0x16B48 (0000ms, 0542ms total)
T114C 000:555 JLINK_GetDLLVersion()  returns 49410 (0000ms, 0542ms total)
T114C 000:558 JLINK_GetDLLVersion()  returns 49410 (0000ms, 0542ms total)
T114C 000:558 JLINK_GetCompileDateTime() (0000ms, 0542ms total)
T114C 000:558 JLINK_GetFirmwareString(...) (0000ms, 0542ms total)
T114C 000:560 JLINK_GetHardwareVersion()  returns 0x16B48 (0000ms, 0542ms total)
T114C 000:566 JLINK_TIF_Select(JLINKARM_TIF_JTAG)  returns 0x00 (0002ms, 0544ms total)
T114C 000:568 JLINK_SetMaxSpeed() >0x2F8 JTAG>TotalIRLen = 9, IRPrint = 0x0011 >0x30 JTAG> >0x210 JTAG> >0x70 JTAG> >0x40 JTAG> >0x40 JTAG> >0x40 JTAG> >0x50 JTAG> >0x80 JTAG> >0x40 JTAG> >0x30 JTAG> >0x40 JTAG> >0x40 JTAG> >0x30 JTAG> >0x40 JTAG> >0x50 JTAG>Found Cortex-M4 r0p1, Little endian. -- CPU_WriteMem(4 bytes @ 0xE0002000) -- CPU_ReadMem(4 bytes @ 0xE000EDF0) -- CPU_ReadMem(4 bytes @ 0xE0002000)FPUnit: 6 code (BP) slots and 2 literal slots -- CPU_ReadMem(4 bytes @ 0xE000EDFC)
 -- CPU_ReadMem(4 bytes @ 0xE0001000) -- CPU_WriteMem(4 bytes @ 0xE0001000) -- CPU_ReadMem(4 bytes @ 0xE000ED88) -- CPU_WriteMem(4 bytes @ 0xE000ED88) -- CPU_ReadMem(4 bytes @ 0xE000ED88) -- CPU_WriteMem(4 bytes @ 0xE000ED88) -- CPU_ReadMem(4 bytes @ 0xE00FF010)TPIU fitted. -- CPU_ReadMem(4 bytes @ 0xE00FF014)ETM fitted. -- CPU_ReadMem(4 bytes @ 0xE00FF018) >0x38 JTAG> (0024ms, 0568ms total)
T114C 000:592 JLINK_GetSpeed()  returns 0xFA0 (0000ms, 0568ms total)
T114C 000:592 JLINK_GetIdData(...) ScanLen=9 NumDevices=2 aId[0]=0x4BA00477 aIrRead[0]=0 aScanLen[0]=0 aScanRead[0]=0 (0000ms, 0568ms total)
T114C 000:592 JLINK_JTAG_GetDeviceID(DeviceIndex = 0)  returns 0x4BA00477 (0000ms, 0568ms total)
T114C 000:592 JLINK_JTAG_GetDeviceInfo(DeviceIndex = 0)  returns 0x00 (0000ms, 0568ms total)
T114C 000:592 JLINK_JTAG_GetDeviceID(DeviceIndex = 1)  returns 0x6413041 (0000ms, 0568ms total)
T114C 000:592 JLINK_JTAG_GetDeviceInfo(DeviceIndex = 1)  returns 0x00 (0000ms, 0568ms total)
T114C 000:592 JLINK_CORE_GetFound()  returns 0xE0000FF (0000ms, 0568ms total)
T114C 000:592 JLINK_ReadMem (0xE00FFFF0, 0x0010 Bytes, ...) -- CPU is running -- CPU_ReadMem(16 bytes @ 0xE00FFFF0) - Data: 0D 00 00 00 10 00 00 00 05 00 00 00 B1 00 00 00  returns 0x00 (0001ms, 0569ms total)
T114C 000:593 JLINK_ReadMem (0xE00FFFD0, 0x0020 Bytes, ...) -- CPU is running -- CPU_ReadMem(32 bytes @ 0xE00FFFD0) - Data: 00 00 00 00 00 00 00 00 00 00 00 00 00 00 00 00 ...  returns 0x00 (0000ms, 0569ms total)
T114C 000:593 JLINK_ReadMem (0xE00FF000, 0x0018 Bytes, ...) -- CPU is running -- CPU_ReadMem(24 bytes @ 0xE00FF000) - Data: 03 F0 F0 FF 03 20 F0 FF 03 30 F0 FF 03 10 F0 FF ...  returns 0x00 (0001ms, 0570ms total)
T114C 000:594 JLINK_CORE_GetFound()  returns 0xE0000FF (0000ms, 0570ms total)
T114C 000:594 JLINK_ReadMemU32(0xE000EF40, 0x0001 Items, ...) -- CPU is running -- CPU_ReadMem(4 bytes @ 0xE000EF40) - Data: 21 00 11 10  returns 0x01 (0001ms, 0571ms total)
T114C 000:595 JLINK_ReadMemU32(0xE000EF44, 0x0001 Items, ...) -- CPU is running -- CPU_ReadMem(4 bytes @ 0xE000EF44) - Data: 11 00 00 11  returns 0x01 (0000ms, 0571ms total)
T114C 000:595 JLINK_ReadMemU32(0xE000ED00, 0x0001 Items, ...) -- CPU is running -- CPU_ReadMem(4 bytes @ 0xE000ED00) - Data: 41 C2 0F 41  returns 0x01 (0001ms, 0572ms total)
T114C 000:596 JLINK_SetResetType(JLINKARM_RESET_TYPE_NORMAL)  returns JLINKARM_RESET_TYPE_NORMAL (0000ms, 0572ms total)
T114C 000:596 JLINK_Reset() -- CPU is running -- CPU_WriteMem(4 bytes @ 0xE000EDF0) -- CPU is running -- CPU_WriteMem(4 bytes @ 0xE000EDFC) -- CPU is running -- CPU_WriteMem(4 bytes @ 0xE000ED0C) -- CPU is running -- CPU_ReadMem(4 bytes @ 0xE000EDF0) -- CPU is running -- CPU_ReadMem(4 bytes @ 0xE000EDF0) -- CPU is running -- CPU_WriteMem(4 bytes @ 0xE000EDF0) -- CPU is running -- CPU_WriteMem(4 bytes @ 0xE000EDFC) -- CPU is running -- CPU_ReadMem(4 bytes @ 0xE000EDF0) >0x80 JTAG> >0x40 JTAG> >0x30 JTAG>
 >0x40 JTAG> >0x50 JTAG> >0x40 JTAG> -- CPU_WriteMem(4 bytes @ 0xE000EDFC) -- CPU_WriteMem(4 bytes @ 0xE0001028) -- CPU_WriteMem(4 bytes @ 0xE0001038) -- CPU_WriteMem(4 bytes @ 0xE0001048) -- CPU_WriteMem(4 bytes @ 0xE0001058) -- CPU_WriteMem(4 bytes @ 0xE0002000) -- CPU_ReadMem(4 bytes @ 0xE000EDFC) -- CPU_ReadMem(4 bytes @ 0xE0001000) (0027ms, 0599ms total)
T114C 000:623 JLINK_ReadReg(R15 (PC))  returns 0x0800020C (0000ms, 0599ms total)
T114C 000:623 JLINK_ReadReg(XPSR)  returns 0x01000000 (0000ms, 0599ms total)
T114C 000:623 JLINK_Halt()  returns 0x00 (0000ms, 0599ms total)
T114C 000:623 JLINK_IsHalted()  returns TRUE (0000ms, 0599ms total)
T114C 000:623 JLINK_ReadMemU32(0xE000EDF0, 0x0001 Items, ...) -- CPU_ReadMem(4 bytes @ 0xE000EDF0) - Data: 03 00 03 00  returns 0x01 (0001ms, 0600ms total)
T114C 000:624 JLINK_WriteU32(0xE000EDF0, 0xA05F0003) -- CPU_WriteMem(4 bytes @ 0xE000EDF0)  returns 0x00 (0001ms, 0601ms total)
T114C 000:625 JLINK_WriteU32(0xE000EDFC, 0x01000000) -- CPU_WriteMem(4 bytes @ 0xE000EDFC)  returns 0x00 (0000ms, 0601ms total)
T114C 000:625 JLINK_GetHWStatus(...)  returns 0x00 (0001ms, 0602ms total)
T114C 000:626 JLINK_GetNumBPUnits(Type = 0xFFFFFF00)  returns 0x06 (0000ms, 0602ms total)
T114C 000:626 JLINK_GetNumBPUnits(Type = 0xF0)  returns 0x2000 (0000ms, 0602ms total)
T114C 000:626 JLINK_GetNumWPUnits()  returns 0x04 (0000ms, 0602ms total)
T114C 000:626 JLINK_GetSpeed()  returns 0xFA0 (0000ms, 0602ms total)
T114C 000:626 JLINK_ReadMemU32(0xE000E004, 0x0001 Items, ...) -- CPU_ReadMem(4 bytes @ 0xE000E004) - Data: 02 00 00 00  returns 0x01 (0001ms, 0603ms total)
T114C 000:627 JLINK_ReadMemU32(0xE000E004, 0x0001 Items, ...) -- CPU_ReadMem(4 bytes @ 0xE000E004) - Data: 02 00 00 00  returns 0x01 (0001ms, 0604ms total)
T114C 000:628 JLINK_WriteMem(0xE0001000, 0x001C Bytes, ...) - Data: 01 00 00 00 00 00 00 00 00 00 00 00 00 00 00 00 ... -- CPU_WriteMem(28 bytes @ 0xE0001000)  returns 0x1C (0001ms, 0605ms total)
T114C 000:629 JLINK_ReadMem (0xE0001000, 0x001C Bytes, ...) -- CPU_ReadMem(28 bytes @ 0xE0001000) - Data: 01 00 00 40 00 00 00 00 00 00 00 00 00 00 00 00 ...  returns 0x00 (0000ms, 0605ms total)
T114C 000:629 JLINK_ReadReg(R15 (PC))  returns 0x0800020C (0000ms, 0605ms total)
T114C 000:629 JLINK_ReadReg(XPSR)  returns 0x01000000 (0000ms, 0605ms total)
T114C 000:644 JLINK_WriteMem(0x08000000, 0x0400 Bytes, ...) - Data: 60 06 00 20 0D 02 00 08 15 02 00 08 17 02 00 08 ... -- CPU_WriteMem(1024 bytes @ 0x08000000)  returns 0x400 (0005ms, 0610ms total)
T114C 000:649 JLINK_WriteMem(0x08000400, 0x01CC Bytes, ...) - Data: 95 F8 01 22 0A 21 06 20 00 F0 90 F8 01 22 0E 21 ... -- CPU_WriteMem(460 bytes @ 0x08000400)  returns 0x1CC (0002ms, 0612ms total)
T114C 000:705 JLINK_SetResetType(JLINKARM_RESET_TYPE_NORMAL)  returns JLINKARM_RESET_TYPE_NORMAL (0000ms, 0612ms total)
T114C 000:705 JLINK_Reset() -- CPU_WriteMem(4 bytes @ 0xE000EDF0) -- CPU_WriteMem(4 bytes @ 0xE000EDFC) -- CPU_WriteMem(4 bytes @ 0xE000ED0C) -- CPU_ReadMem(4 bytes @ 0xE000EDF0) -- CPU_ReadMem(4 bytes @ 0xE000EDF0) -- CPU_WriteMem(4 bytes @ 0xE000EDF0) -- CPU_WriteMem(4 bytes @ 0xE000EDFC) -- CPU is running -- CPU_ReadMem(4 bytes @ 0xE000EDF0) >0x80 JTAG> >0x40 JTAG> >0x30 JTAG> >0x40 JTAG> >0x50 JTAG> >0x40 JTAG> -- CPU_WriteMem(4 bytes @ 0xE000EDFC) -- CPU_WriteMem(4 bytes @ 0xE0001028)
 -- CPU_WriteMem(4 bytes @ 0xE0001038) -- CPU_WriteMem(4 bytes @ 0xE0001048) -- CPU_WriteMem(4 bytes @ 0xE0001058) -- CPU_WriteMem(4 bytes @ 0xE0002000) -- CPU_ReadMem(4 bytes @ 0xE000EDFC) -- CPU_ReadMem(4 bytes @ 0xE0001000) (0027ms, 0639ms total)
T114C 000:732 JLINK_ReadReg(R15 (PC))  returns 0x0800020C (0000ms, 0639ms total)
T114C 000:732 JLINK_ReadReg(XPSR)  returns 0x01000000 (0000ms, 0639ms total)
T114C 000:919 JLINK_ReadMem (0x08000188, 0x003C Bytes, ...) -- CPU_ReadMem(60 bytes @ 0x08000188) - Data: 00 F0 02 F8 00 F0 2E F8 0A A0 90 E8 00 0C 82 44 ...  returns 0x00 (0002ms, 0641ms total)
T114C 000:921 JLINK_ReadMem (0x080001C4, 0x003C Bytes, ...) -- CPU_ReadMem(60 bytes @ 0x080001C4) - Data: 00 23 00 24 00 25 00 26 10 3A 28 BF 78 C1 FB D8 ...  returns 0x00 (0000ms, 0641ms total)
T114C 000:922 JLINK_ReadMem (0x08000200, 0x003C Bytes, ...) -- CPU_ReadMem(60 bytes @ 0x08000200) - Data: FF F7 F2 FF 03 BC 00 F0 53 F8 00 00 09 48 80 47 ...  returns 0x00 (0001ms, 0642ms total)
T0F14 001:767 JLINK_SetBPEx(Addr = 0x080003AC, Type = 0xFFFFFFF2)  returns 0x00000001 (0000ms, 0642ms total)
T0F14 001:767 JLINK_Go() -- CPU_WriteMem(4 bytes @ 0xE0002008) -- CPU_WriteMem(4 bytes @ 0xE000200C) -- CPU_WriteMem(4 bytes @ 0xE0002010) -- CPU_WriteMem(4 bytes @ 0xE0002014) -- CPU_WriteMem(4 bytes @ 0xE0002018) -- CPU_WriteMem(4 bytes @ 0xE000201C) -- CPU_WriteMem(4 bytes @ 0xE0001004) (0004ms, 0646ms total)
T0F14 001:872 JLINK_IsHalted()  returns TRUE (0002ms, 0648ms total)
T0F14 001:874 JLINK_Halt()  returns 0x00 (0000ms, 0646ms total)
T0F14 001:874 JLINK_IsHalted()  returns TRUE (0001ms, 0647ms total)
T0F14 001:875 JLINK_IsHalted()  returns TRUE (0000ms, 0646ms total)
T0F14 001:875 JLINK_IsHalted()  returns TRUE (0000ms, 0646ms total)
T0F14 001:875 JLINK_ReadReg(R15 (PC))  returns 0x080003AC (0000ms, 0646ms total)
T0F14 001:875 JLINK_ReadReg(XPSR)  returns 0x21000000 (0000ms, 0646ms total)
T0F14 001:875 JLINK_ClrBPEx(BPHandle = 0x00000001)  returns 0x00 (0000ms, 0646ms total)
T0F14 001:875 JLINK_ReadMemU32(0xE000ED30, 0x0001 Items, ...) -- CPU_ReadMem(4 bytes @ 0xE000ED30) - Data: 03 00 00 00  returns 0x01 (0000ms, 0646ms total)
T0F14 001:875 JLINK_ReadMemU32(0xE0001028, 0x0001 Items, ...) -- CPU_ReadMem(4 bytes @ 0xE0001028) - Data: 00 00 00 00  returns 0x01 (0001ms, 0647ms total)
T0F14 001:876 JLINK_ReadMemU32(0xE0001038, 0x0001 Items, ...) -- CPU_ReadMem(4 bytes @ 0xE0001038) - Data: 00 02 00 00  returns 0x01 (0000ms, 0647ms total)
T0F14 001:876 JLINK_ReadMemU32(0xE0001048, 0x0001 Items, ...) -- CPU_ReadMem(4 bytes @ 0xE0001048) - Data: 00 00 00 00  returns 0x01 (0001ms, 0648ms total)
T0F14 001:877 JLINK_ReadMemU32(0xE0001058, 0x0001 Items, ...) -- CPU_ReadMem(4 bytes @ 0xE0001058) - Data: 00 00 00 00  returns 0x01 (0001ms, 0649ms total)
T0F14 001:878 JLINK_ReadReg(R0)  returns 0x20000060 (0000ms, 0649ms total)
T0F14 001:878 JLINK_ReadReg(R1)  returns 0x20000260 (0000ms, 0649ms total)
T0F14 001:878 JLINK_ReadReg(R2)  returns 0x20000260 (0000ms, 0649ms total)
T0F14 001:878 JLINK_ReadReg(R3)  returns 0x20000260 (0000ms, 0649ms total)
T0F14 001:878 JLINK_ReadReg(R4)  returns 0x00000000 (0000ms, 0649ms total)
T0F14 001:878 JLINK_ReadReg(R5)  returns 0x20000000 (0000ms, 0649ms total)
T0F14 001:878 JLINK_ReadReg(R6)  returns 0x00000000 (0000ms, 0649ms total)
T0F14 001:878 JLINK_ReadReg(R7)  returns 0x00000000 (0000ms, 0649ms total)
T0F14 001:878 JLINK_ReadReg(R8)  returns 0x00000000 (0000ms, 0649ms total)
T0F14 001:878 JLINK_ReadReg(R9)  returns 0x00000000 (0000ms, 0649ms total)
T0F14 001:878 JLINK_ReadReg(R10)  returns 0x080005CC (0000ms, 0649ms total)
T0F14 001:878 JLINK_ReadReg(R11)  returns 0x00000000 (0000ms, 0649ms total)
T0F14 001:878 JLINK_ReadReg(R12)  returns 0x20000040 (0000ms, 0649ms total)
T0F14 001:878 JLINK_ReadReg(R13 (SP))  returns 0x20000660 (0000ms, 0649ms total)
T0F14 001:878 JLINK_ReadReg(R14)  returns 0x080001FB (0000ms, 0649ms total)
T0F14 001:878 JLINK_ReadReg(R15 (PC))  returns 0x080003AC (0000ms, 0649ms total)
T0F14 001:878 JLINK_ReadReg(XPSR)  returns 0x21000000 (0000ms, 0649ms total)
T0F14 001:878 JLINK_ReadReg(MSP)  returns 0x20000660 (0000ms, 0649ms total)
T0F14 001:878 JLINK_ReadReg(PSP)  returns 0x00000000 (0000ms, 0649ms total)
T0F14 001:878 JLINK_ReadReg(CFBP)  returns 0x04000000 (0000ms, 0649ms total)
T0F14 001:878 JLINK_ReadReg(FPSCR)  returns 0x03000000 (0004ms, 0653ms total)
T0F14 001:882 JLINK_ReadReg(FPS0)  returns 0x00000000 (0000ms, 0653ms total)
T0F14 001:882 JLINK_ReadReg(FPS1)  returns 0x00000000 (0000ms, 0653ms total)
T0F14 001:882 JLINK_ReadReg(FPS2)  returns 0x00000000 (0000ms, 0653ms total)
T0F14 001:882 JLINK_ReadReg(FPS3)  returns 0x00000000 (0000ms, 0653ms total)
T0F14 001:882 JLINK_ReadReg(FPS4)  returns 0x00000000 (0000ms, 0653ms total)
T0F14 001:882 JLINK_ReadReg(FPS5)  returns 0x00000000 (0000ms, 0653ms total)
T0F14 001:882 JLINK_ReadReg(FPS6)  returns 0x00000000 (0000ms, 0653ms total)
T0F14 001:882 JLINK_ReadReg(FPS7)  returns 0x00000000 (0000ms, 0653ms total)
T0F14 001:882 JLINK_ReadReg(FPS8)  returns 0x00000000 (0000ms, 0653ms total)
T0F14 001:882 JLINK_ReadReg(FPS9)  returns 0x00000000 (0000ms, 0653ms total)
T0F14 001:882 JLINK_ReadReg(FPS10)  returns 0x00000000 (0000ms, 0653ms total)
T0F14 001:882 JLINK_ReadReg(FPS11)  returns 0x00000000 (0000ms, 0653ms total)
T0F14 001:882 JLINK_ReadReg(FPS12)  returns 0x00000000 (0000ms, 0653ms total)
T0F14 001:882 JLINK_ReadReg(FPS13)  returns 0x00000000 (0000ms, 0653ms total)
T0F14 001:882 JLINK_ReadReg(FPS14)  returns 0x00000000 (0000ms, 0653ms total)
T0F14 001:882 JLINK_ReadReg(FPS15)  returns 0x00000000 (0000ms, 0653ms total)
T0F14 001:882 JLINK_ReadReg(FPS16)  returns 0x00000000 (0000ms, 0653ms total)
T0F14 001:882 JLINK_ReadReg(FPS17)  returns 0x00000000 (0000ms, 0653ms total)
T0F14 001:882 JLINK_ReadReg(FPS18)  returns 0x00000000 (0000ms, 0653ms total)
T0F14 001:882 JLINK_ReadReg(FPS19)  returns 0x00000000 (0000ms, 0653ms total)
T0F14 001:882 JLINK_ReadReg(FPS20)  returns 0x00000000 (0000ms, 0653ms total)
T0F14 001:882 JLINK_ReadReg(FPS21)  returns 0x00000000 (0000ms, 0653ms total)
T0F14 001:882 JLINK_ReadReg(FPS22)  returns 0x00000000 (0000ms, 0653ms total)
T0F14 001:882 JLINK_ReadReg(FPS23)  returns 0x00000000 (0000ms, 0653ms total)
T0F14 001:882 JLINK_ReadReg(FPS24)  returns 0x00000000 (0000ms, 0653ms total)
T0F14 001:882 JLINK_ReadReg(FPS25)  returns 0x00000000 (0000ms, 0653ms total)
T0F14 001:882 JLINK_ReadReg(FPS26)  returns 0x00000000 (0000ms, 0653ms total)
T0F14 001:882 JLINK_ReadReg(FPS27)  returns 0x00000000 (0000ms, 0653ms total)
T0F14 001:882 JLINK_ReadReg(FPS28)  returns 0x00000000 (0000ms, 0653ms total)
T0F14 001:882 JLINK_ReadReg(FPS29)  returns 0x00000000 (0000ms, 0653ms total)
T0F14 001:882 JLINK_ReadReg(FPS30)  returns 0x00000000 (0000ms, 0653ms total)
T0F14 001:882 JLINK_ReadReg(FPS31)  returns 0x00000000 (0000ms, 0653ms total)
T114C 001:885 JLINK_ReadMemU32(0xE0001004, 0x0001 Items, ...) -- CPU_ReadMem(4 bytes @ 0xE0001004) - Data: 06 04 00 00  returns 0x01 (0001ms, 0654ms total)
T114C 001:888 JLINK_ReadMem (0x080002B0, 0x003C Bytes, ...) -- CPU_ReadMem(128 bytes @ 0x08000280) -- Updating DA cache (128 bytes @ 0x08000280) -- Read from DA cache (60 bytes @ 0x080002B0) - Data: 01 49 18 20 AB BE FE E7 26 00 02 00 70 47 00 00 ...  returns 0x00 (0001ms, 0655ms total)
T114C 001:889 JLINK_ReadMem (0x080002EC, 0x003C Bytes, ...) -- CPU_ReadMem(64 bytes @ 0x08000300) -- Updating DA cache (64 bytes @ 0x08000300) -- Read from DA cache (60 bytes @ 0x080002EC) - Data: 0C 48 09 1D 08 60 08 1F 00 68 20 F4 80 20 09 1F ...  returns 0x00 (0001ms, 0656ms total)
T114C 001:890 JLINK_ReadMem (0x08000328, 0x003C Bytes, ...) -- CPU_ReadMem(64 bytes @ 0x08000340) -- Updating DA cache (64 bytes @ 0x08000340) -- Read from DA cache (60 bytes @ 0x08000328) - Data: 08 49 00 28 0D DB 0A 28 0B DC 2A B9 0B 6B 01 24 ...  returns 0x00 (0001ms, 0657ms total)
T114C 001:891 JLINK_ReadMem (0x08000364, 0x003C Bytes, ...) -- CPU_ReadMem(64 bytes @ 0x08000380) -- Updating DA cache (64 bytes @ 0x08000380) -- Read from DA cache (60 bytes @ 0x08000364) - Data: 00 29 09 DB 0F 29 07 DC 01 20 90 40 83 43 0B B1 ...  returns 0x00 (0001ms, 0658ms total)
T114C 001:892 JLINK_ReadMem (0x080003A0, 0x003C Bytes, ...) -- CPU_ReadMem(64 bytes @ 0x080003C0) -- Updating DA cache (64 bytes @ 0x080003C0) -- Read from DA cache (60 bytes @ 0x080003A0) - Data: 8C 40 23 43 53 83 10 BD 00 00 02 40 01 21 05 20 ...  returns 0x00 (0001ms, 0659ms total)
T114C 001:908 JLINK_ReadMem (0x08000418, 0x003C Bytes, ...) -- CPU_ReadMem(128 bytes @ 0x08000400) -- Updating DA cache (128 bytes @ 0x08000400) -- Read from DA cache (60 bytes @ 0x08000418) - Data: 06 21 08 46 FF F7 98 FF 80 B1 05 21 08 46 00 F0 ...  returns 0x00 (0002ms, 0661ms total)
T0F14 003:520 JLINK_Step() -- Read from DA cache (2 bytes @ 0x080003AC) -- Simulated  returns 0x00 (0000ms, 0661ms total)
T0F14 003:520 JLINK_ReadReg(R15 (PC))  returns 0x080003AE (0001ms, 0662ms total)
T0F14 003:521 JLINK_ReadReg(XPSR)  returns 0x21000000 (0000ms, 0662ms total)
T0F14 003:521 JLINK_Step() -- Read from DA cache (2 bytes @ 0x080003AE) -- Simulated  returns 0x00 (0000ms, 0662ms total)
T0F14 003:521 JLINK_ReadReg(R15 (PC))  returns 0x080003B0 (0000ms, 0662ms total)
T0F14 003:521 JLINK_ReadReg(XPSR)  returns 0x21000000 (0000ms, 0662ms total)
T0F14 003:521 JLINK_Step() -- Read from DA cache (2 bytes @ 0x080003B0) -- Not simulated -- CPU_WriteMem(4 bytes @ 0xE0002008) -- CPU_WriteMem(4 bytes @ 0xE0001004)  returns 0x00 (0005ms, 0667ms total)
T0F14 003:526 JLINK_ReadReg(R15 (PC))  returns 0x08000324 (0000ms, 0667ms total)
T0F14 003:526 JLINK_ReadReg(XPSR)  returns 0x21000000 (0000ms, 0667ms total)
T0F14 003:526 JLINK_ReadReg(R0)  returns 0x00000005 (0000ms, 0667ms total)
T0F14 003:526 JLINK_ReadReg(R1)  returns 0x00000001 (0000ms, 0667ms total)
T0F14 003:526 JLINK_ReadReg(R2)  returns 0x20000260 (0000ms, 0667ms total)
T0F14 003:526 JLINK_ReadReg(R3)  returns 0x20000260 (0000ms, 0667ms total)
T0F14 003:526 JLINK_ReadReg(R4)  returns 0x00000000 (0000ms, 0667ms total)
T0F14 003:526 JLINK_ReadReg(R5)  returns 0x20000000 (0000ms, 0667ms total)
T0F14 003:526 JLINK_ReadReg(R6)  returns 0x00000000 (0000ms, 0667ms total)
T0F14 003:526 JLINK_ReadReg(R7)  returns 0x00000000 (0000ms, 0667ms total)
T0F14 003:526 JLINK_ReadReg(R8)  returns 0x00000000 (0000ms, 0667ms total)
T0F14 003:526 JLINK_ReadReg(R9)  returns 0x00000000 (0000ms, 0667ms total)
T0F14 003:526 JLINK_ReadReg(R10)  returns 0x080005CC (0000ms, 0667ms total)
T0F14 003:526 JLINK_ReadReg(R11)  returns 0x00000000 (0000ms, 0667ms total)
T0F14 003:526 JLINK_ReadReg(R12)  returns 0x20000040 (0000ms, 0667ms total)
T0F14 003:526 JLINK_ReadReg(R13 (SP))  returns 0x20000660 (0000ms, 0667ms total)
T0F14 003:526 JLINK_ReadReg(R14)  returns 0x080003B5 (0000ms, 0667ms total)
T0F14 003:526 JLINK_ReadReg(R15 (PC))  returns 0x08000324 (0000ms, 0667ms total)
T0F14 003:526 JLINK_ReadReg(XPSR)  returns 0x21000000 (0000ms, 0667ms total)
T0F14 003:526 JLINK_ReadReg(MSP)  returns 0x20000660 (0000ms, 0667ms total)
T0F14 003:526 JLINK_ReadReg(PSP)  returns 0x00000000 (0000ms, 0667ms total)
T0F14 003:526 JLINK_ReadReg(CFBP)  returns 0x04000000 (0000ms, 0667ms total)
T0F14 003:526 JLINK_ReadReg(FPSCR)  returns 0x03000000 (0004ms, 0671ms total)
T0F14 003:530 JLINK_ReadReg(FPS0)  returns 0x00000000 (0000ms, 0671ms total)
T0F14 003:530 JLINK_ReadReg(FPS1)  returns 0x00000000 (0000ms, 0671ms total)
T0F14 003:530 JLINK_ReadReg(FPS2)  returns 0x00000000 (0000ms, 0671ms total)
T0F14 003:530 JLINK_ReadReg(FPS3)  returns 0x00000000 (0000ms, 0671ms total)
T0F14 003:530 JLINK_ReadReg(FPS4)  returns 0x00000000 (0000ms, 0671ms total)
T0F14 003:530 JLINK_ReadReg(FPS5)  returns 0x00000000 (0001ms, 0672ms total)
T0F14 003:531 JLINK_ReadReg(FPS6)  returns 0x00000000 (0000ms, 0672ms total)
T0F14 003:531 JLINK_ReadReg(FPS7)  returns 0x00000000 (0000ms, 0672ms total)
T0F14 003:531 JLINK_ReadReg(FPS8)  returns 0x00000000 (0000ms, 0672ms total)
T0F14 003:531 JLINK_ReadReg(FPS9)  returns 0x00000000 (0000ms, 0672ms total)
T0F14 003:531 JLINK_ReadReg(FPS10)  returns 0x00000000 (0000ms, 0672ms total)
T0F14 003:531 JLINK_ReadReg(FPS11)  returns 0x00000000 (0000ms, 0672ms total)
T0F14 003:531 JLINK_ReadReg(FPS12)  returns 0x00000000 (0000ms, 0672ms total)
T0F14 003:531 JLINK_ReadReg(FPS13)  returns 0x00000000 (0000ms, 0672ms total)
T0F14 003:531 JLINK_ReadReg(FPS14)  returns 0x00000000 (0000ms, 0672ms total)
T0F14 003:531 JLINK_ReadReg(FPS15)  returns 0x00000000 (0000ms, 0672ms total)
T0F14 003:531 JLINK_ReadReg(FPS16)  returns 0x00000000 (0000ms, 0672ms total)
T0F14 003:531 JLINK_ReadReg(FPS17)  returns 0x00000000 (0000ms, 0672ms total)
T0F14 003:531 JLINK_ReadReg(FPS18)  returns 0x00000000 (0000ms, 0672ms total)
T0F14 003:531 JLINK_ReadReg(FPS19)  returns 0x00000000 (0000ms, 0672ms total)
T0F14 003:531 JLINK_ReadReg(FPS20)  returns 0x00000000 (0000ms, 0672ms total)
T0F14 003:531 JLINK_ReadReg(FPS21)  returns 0x00000000 (0000ms, 0672ms total)
T0F14 003:531 JLINK_ReadReg(FPS22)  returns 0x00000000 (0000ms, 0672ms total)
T0F14 003:531 JLINK_ReadReg(FPS23)  returns 0x00000000 (0000ms, 0672ms total)
T0F14 003:531 JLINK_ReadReg(FPS24)  returns 0x00000000 (0000ms, 0672ms total)
T0F14 003:531 JLINK_ReadReg(FPS25)  returns 0x00000000 (0000ms, 0672ms total)
T0F14 003:531 JLINK_ReadReg(FPS26)  returns 0x00000000 (0000ms, 0672ms total)
T0F14 003:531 JLINK_ReadReg(FPS27)  returns 0x00000000 (0000ms, 0672ms total)
T0F14 003:531 JLINK_ReadReg(FPS28)  returns 0x00000000 (0000ms, 0672ms total)
T0F14 003:531 JLINK_ReadReg(FPS29)  returns 0x00000000 (0000ms, 0672ms total)
T0F14 003:531 JLINK_ReadReg(FPS30)  returns 0x00000000 (0000ms, 0672ms total)
T0F14 003:531 JLINK_ReadReg(FPS31)  returns 0x00000000 (0000ms, 0672ms total)
T114C 003:531 JLINK_ReadMem (0x00000000, 0x0004 Bytes, ...) -- CPU_ReadMem(4 bytes @ 0x00000000) - Data: 60 06 00 20  returns 0x00 (0001ms, 0673ms total)
T114C 003:536 JLINK_ReadMemU32(0xE0001004, 0x0001 Items, ...) -- CPU_ReadMem(4 bytes @ 0xE0001004) - Data: 09 04 00 00  returns 0x01 (0000ms, 0673ms total)
T114C 003:538 JLINK_ReadMem (0x08000224, 0x003C Bytes, ...) -- CPU_ReadMem(128 bytes @ 0x08000200) -- Updating DA cache (128 bytes @ 0x08000200) -- Read from DA cache (60 bytes @ 0x08000224) - Data: FE E7 FE E7 04 48 05 49 05 4A 06 4B 70 47 00 00 ...  returns 0x00 (0001ms, 0674ms total)
T114C 003:539 JLINK_ReadMem (0x08000260, 0x003C Bytes, ...) -- CPU_ReadMem(64 bytes @ 0x08000280) -- Updating DA cache (64 bytes @ 0x08000280) -- Read from DA cache (60 bytes @ 0x08000260) - Data: 20 F0 07 00 85 46 18 B0 20 B5 FF F7 DD FF BD E8 ...  returns 0x00 (0001ms, 0675ms total)
T114C 003:540 JLINK_ReadMem (0x0800029C, 0x003C Bytes, ...) -- CPU_ReadMem(64 bytes @ 0x080002C0) -- Updating DA cache (64 bytes @ 0x080002C0) -- Read from DA cache (60 bytes @ 0x0800029C) - Data: 04 46 AF F3 00 80 20 46 FF F7 AB FF 00 48 70 47 ...  returns 0x00 (0001ms, 0676ms total)
T114C 003:541 JLINK_ReadMem (0x080002D8, 0x003C Bytes, ...) -- CPU_ReadMem(64 bytes @ 0x08000300) -- Updating DA cache (64 bytes @ 0x08000300) -- Read from DA cache (60 bytes @ 0x080002D8) - Data: 00 20 0F 49 08 31 08 60 0D 48 00 68 0D 49 08 40 ...  returns 0x00 (0001ms, 0677ms total)
T114C 003:542 JLINK_ReadMem (0x08000322, 0x0002 Bytes, ...) -- Read from DA cache (2 bytes @ 0x08000322) - Data: 00 24  returns 0x00 (0000ms, 0677ms total)
T114C 003:542 JLINK_ReadMem (0x08000324, 0x003C Bytes, ...) -- CPU_ReadMem(64 bytes @ 0x08000340) -- Updating DA cache (64 bytes @ 0x08000340) -- Read from DA cache (60 bytes @ 0x08000324) - Data: 10 B5 0A 46 08 49 00 28 0D DB 0A 28 0B DC 2A B9 ...  returns 0x00 (0001ms, 0678ms total)
T0F14 005:242 JLINK_Step() -- Read from DA cache (2 bytes @ 0x08000324) -- Not simulated  returns 0x00 (0004ms, 0682ms total)
T0F14 005:246 JLINK_ReadReg(R15 (PC))  returns 0x08000326 (0000ms, 0682ms total)
T0F14 005:246 JLINK_ReadReg(XPSR)  returns 0x21000000 (0000ms, 0682ms total)
T0F14 005:246 JLINK_Step() -- CPU_ReadMem(64 bytes @ 0x08000300) -- Updating DA cache (64 bytes @ 0x08000300) -- Read from DA cache (2 bytes @ 0x08000326) -- CPU_ReadMem(4 bytes @ 0xE0001004) -- Simulated  returns 0x00 (0002ms, 0684ms total)
T0F14 005:248 JLINK_ReadReg(R15 (PC))  returns 0x08000328 (0000ms, 0684ms total)
T0F14 005:248 JLINK_ReadReg(XPSR)  returns 0x21000000 (0000ms, 0684ms total)
T0F14 005:248 JLINK_ReadReg(R0)  returns 0x00000005 (0000ms, 0684ms total)
T0F14 005:248 JLINK_ReadReg(R1)  returns 0x00000001 (0000ms, 0684ms total)
T0F14 005:248 JLINK_ReadReg(R2)  returns 0x00000001 (0000ms, 0684ms total)
T0F14 005:248 JLINK_ReadReg(R3)  returns 0x20000260 (0000ms, 0684ms total)
T0F14 005:248 JLINK_ReadReg(R4)  returns 0x00000000 (0000ms, 0684ms total)
T0F14 005:248 JLINK_ReadReg(R5)  returns 0x20000000 (0000ms, 0684ms total)
T0F14 005:248 JLINK_ReadReg(R6)  returns 0x00000000 (0000ms, 0684ms total)
T0F14 005:248 JLINK_ReadReg(R7)  returns 0x00000000 (0000ms, 0684ms total)
T0F14 005:248 JLINK_ReadReg(R8)  returns 0x00000000 (0000ms, 0684ms total)
T0F14 005:248 JLINK_ReadReg(R9)  returns 0x00000000 (0000ms, 0684ms total)
T0F14 005:248 JLINK_ReadReg(R10)  returns 0x080005CC (0000ms, 0684ms total)
T0F14 005:248 JLINK_ReadReg(R11)  returns 0x00000000 (0000ms, 0684ms total)
T0F14 005:248 JLINK_ReadReg(R12)  returns 0x20000040 (0000ms, 0684ms total)
T0F14 005:248 JLINK_ReadReg(R13 (SP))  returns 0x20000658 (0000ms, 0684ms total)
T0F14 005:248 JLINK_ReadReg(R14)  returns 0x080003B5 (0000ms, 0684ms total)
T0F14 005:249 JLINK_ReadReg(R15 (PC))  returns 0x08000328 (0000ms, 0685ms total)
T0F14 005:249 JLINK_ReadReg(XPSR)  returns 0x21000000 (0000ms, 0685ms total)
T0F14 005:249 JLINK_ReadReg(MSP)  returns 0x20000658 (0000ms, 0685ms total)
T0F14 005:249 JLINK_ReadReg(PSP)  returns 0x00000000 (0000ms, 0685ms total)
T0F14 005:249 JLINK_ReadReg(CFBP)  returns 0x04000000 (0000ms, 0685ms total)
T0F14 005:249 JLINK_ReadReg(FPSCR)  returns 0x03000000 (0004ms, 0689ms total)
T0F14 005:253 JLINK_ReadReg(FPS0)  returns 0x00000000 (0000ms, 0689ms total)
T0F14 005:253 JLINK_ReadReg(FPS1)  returns 0x00000000 (0000ms, 0689ms total)
T0F14 005:253 JLINK_ReadReg(FPS2)  returns 0x00000000 (0000ms, 0689ms total)
T0F14 005:253 JLINK_ReadReg(FPS3)  returns 0x00000000 (0000ms, 0689ms total)
T0F14 005:253 JLINK_ReadReg(FPS4)  returns 0x00000000 (0000ms, 0689ms total)
T0F14 005:253 JLINK_ReadReg(FPS5)  returns 0x00000000 (0000ms, 0689ms total)
T0F14 005:253 JLINK_ReadReg(FPS6)  returns 0x00000000 (0000ms, 0689ms total)
T0F14 005:253 JLINK_ReadReg(FPS7)  returns 0x00000000 (0000ms, 0689ms total)
T0F14 005:253 JLINK_ReadReg(FPS8)  returns 0x00000000 (0000ms, 0689ms total)
T0F14 005:253 JLINK_ReadReg(FPS9)  returns 0x00000000 (0000ms, 0689ms total)
T0F14 005:253 JLINK_ReadReg(FPS10)  returns 0x00000000 (0000ms, 0689ms total)
T0F14 005:253 JLINK_ReadReg(FPS11)  returns 0x00000000 (0000ms, 0689ms total)
T0F14 005:253 JLINK_ReadReg(FPS12)  returns 0x00000000 (0000ms, 0689ms total)
T0F14 005:253 JLINK_ReadReg(FPS13)  returns 0x00000000 (0000ms, 0689ms total)
T0F14 005:253 JLINK_ReadReg(FPS14)  returns 0x00000000 (0000ms, 0689ms total)
T0F14 005:253 JLINK_ReadReg(FPS15)  returns 0x00000000 (0000ms, 0689ms total)
T0F14 005:253 JLINK_ReadReg(FPS16)  returns 0x00000000 (0000ms, 0689ms total)
T0F14 005:253 JLINK_ReadReg(FPS17)  returns 0x00000000 (0000ms, 0689ms total)
T0F14 005:253 JLINK_ReadReg(FPS18)  returns 0x00000000 (0000ms, 0689ms total)
T0F14 005:253 JLINK_ReadReg(FPS19)  returns 0x00000000 (0000ms, 0689ms total)
T0F14 005:253 JLINK_ReadReg(FPS20)  returns 0x00000000 (0000ms, 0689ms total)
T0F14 005:253 JLINK_ReadReg(FPS21)  returns 0x00000000 (0000ms, 0689ms total)
T0F14 005:253 JLINK_ReadReg(FPS22)  returns 0x00000000 (0000ms, 0689ms total)
T0F14 005:253 JLINK_ReadReg(FPS23)  returns 0x00000000 (0000ms, 0689ms total)
T0F14 005:253 JLINK_ReadReg(FPS24)  returns 0x00000000 (0000ms, 0689ms total)
T0F14 005:253 JLINK_ReadReg(FPS25)  returns 0x00000000 (0000ms, 0689ms total)
T0F14 005:253 JLINK_ReadReg(FPS26)  returns 0x00000000 (0000ms, 0689ms total)
T0F14 005:253 JLINK_ReadReg(FPS27)  returns 0x00000000 (0000ms, 0689ms total)
T0F14 005:253 JLINK_ReadReg(FPS28)  returns 0x00000000 (0000ms, 0689ms total)
T0F14 005:253 JLINK_ReadReg(FPS29)  returns 0x00000000 (0000ms, 0689ms total)
T0F14 005:253 JLINK_ReadReg(FPS30)  returns 0x00000000 (0000ms, 0689ms total)
T0F14 005:253 JLINK_ReadReg(FPS31)  returns 0x00000000 (0000ms, 0689ms total)
T114C 005:254 JLINK_ReadMem (0x2000065C, 0x0004 Bytes, ...) -- CPU_ReadMem(4 bytes @ 0x2000065C) - Data: B5 03 00 08  returns 0x00 (0000ms, 0689ms total)
T114C 005:254 JLINK_ReadMem (0x20000658, 0x0004 Bytes, ...) -- CPU_ReadMem(4 bytes @ 0x20000658) - Data: 00 00 00 00  returns 0x00 (0001ms, 0690ms total)
T114C 005:255 JLINK_ReadMem (0x00000000, 0x0004 Bytes, ...) -- CPU_ReadMem(4 bytes @ 0x00000000) - Data: 60 06 00 20  returns 0x00 (0001ms, 0691ms total)
T114C 005:256 JLINK_ReadMemU32(0xE0001004, 0x0001 Items, ...) - Data: 0C 04 00 00  returns 0x01 (0000ms, 0691ms total)
T114C 005:261 JLINK_ReadMem (0x08000324, 0x003C Bytes, ...) -- CPU_ReadMem(64 bytes @ 0x08000340) -- Updating DA cache (64 bytes @ 0x08000340) -- Read from DA cache (60 bytes @ 0x08000324) - Data: 10 B5 0A 46 08 49 00 28 0D DB 0A 28 0B DC 2A B9 ...  returns 0x00 (0002ms, 0693ms total)
T0F14 005:505 JLINK_Step() -- Read from DA cache (2 bytes @ 0x08000328) -- Not simulated -- CPU_WriteMem(4 bytes @ 0xE0001004)  returns 0x00 (0005ms, 0698ms total)
T0F14 005:510 JLINK_ReadReg(R15 (PC))  returns 0x0800032A (0000ms, 0698ms total)
T0F14 005:510 JLINK_ReadReg(XPSR)  returns 0x21000000 (0000ms, 0698ms total)
T0F14 005:510 JLINK_ReadReg(R0)  returns 0x00000005 (0000ms, 0698ms total)
T0F14 005:510 JLINK_ReadReg(R1)  returns 0x40023800 (0000ms, 0698ms total)
T0F14 005:510 JLINK_ReadReg(R2)  returns 0x00000001 (0000ms, 0698ms total)
T0F14 005:510 JLINK_ReadReg(R3)  returns 0x20000260 (0000ms, 0698ms total)
T0F14 005:510 JLINK_ReadReg(R4)  returns 0x00000000 (0000ms, 0698ms total)
T0F14 005:510 JLINK_ReadReg(R5)  returns 0x20000000 (0000ms, 0698ms total)
T0F14 005:510 JLINK_ReadReg(R6)  returns 0x00000000 (0000ms, 0698ms total)
T0F14 005:510 JLINK_ReadReg(R7)  returns 0x00000000 (0000ms, 0698ms total)
T0F14 005:510 JLINK_ReadReg(R8)  returns 0x00000000 (0000ms, 0698ms total)
T0F14 005:510 JLINK_ReadReg(R9)  returns 0x00000000 (0000ms, 0698ms total)
T0F14 005:510 JLINK_ReadReg(R10)  returns 0x080005CC (0000ms, 0698ms total)
T0F14 005:510 JLINK_ReadReg(R11)  returns 0x00000000 (0000ms, 0698ms total)
T0F14 005:510 JLINK_ReadReg(R12)  returns 0x20000040 (0000ms, 0698ms total)
T0F14 005:510 JLINK_ReadReg(R13 (SP))  returns 0x20000658 (0000ms, 0698ms total)
T0F14 005:510 JLINK_ReadReg(R14)  returns 0x080003B5 (0000ms, 0698ms total)
T0F14 005:510 JLINK_ReadReg(R15 (PC))  returns 0x0800032A (0000ms, 0698ms total)
T0F14 005:510 JLINK_ReadReg(XPSR)  returns 0x21000000 (0000ms, 0698ms total)
T0F14 005:510 JLINK_ReadReg(MSP)  returns 0x20000658 (0000ms, 0698ms total)
T0F14 005:510 JLINK_ReadReg(PSP)  returns 0x00000000 (0000ms, 0698ms total)
T0F14 005:510 JLINK_ReadReg(CFBP)  returns 0x04000000 (0000ms, 0698ms total)
T0F14 005:510 JLINK_ReadReg(FPSCR)  returns 0x03000000 (0004ms, 0702ms total)
T0F14 005:514 JLINK_ReadReg(FPS0)  returns 0x00000000 (0000ms, 0702ms total)
T0F14 005:514 JLINK_ReadReg(FPS1)  returns 0x00000000 (0000ms, 0702ms total)
T0F14 005:514 JLINK_ReadReg(FPS2)  returns 0x00000000 (0000ms, 0702ms total)
T0F14 005:514 JLINK_ReadReg(FPS3)  returns 0x00000000 (0000ms, 0702ms total)
T0F14 005:514 JLINK_ReadReg(FPS4)  returns 0x00000000 (0000ms, 0702ms total)
T0F14 005:514 JLINK_ReadReg(FPS5)  returns 0x00000000 (0000ms, 0702ms total)
T0F14 005:514 JLINK_ReadReg(FPS6)  returns 0x00000000 (0000ms, 0702ms total)
T0F14 005:514 JLINK_ReadReg(FPS7)  returns 0x00000000 (0000ms, 0702ms total)
T0F14 005:514 JLINK_ReadReg(FPS8)  returns 0x00000000 (0000ms, 0702ms total)
T0F14 005:514 JLINK_ReadReg(FPS9)  returns 0x00000000 (0000ms, 0702ms total)
T0F14 005:514 JLINK_ReadReg(FPS10)  returns 0x00000000 (0000ms, 0702ms total)
T0F14 005:514 JLINK_ReadReg(FPS11)  returns 0x00000000 (0000ms, 0702ms total)
T0F14 005:514 JLINK_ReadReg(FPS12)  returns 0x00000000 (0000ms, 0702ms total)
T0F14 005:514 JLINK_ReadReg(FPS13)  returns 0x00000000 (0000ms, 0702ms total)
T0F14 005:514 JLINK_ReadReg(FPS14)  returns 0x00000000 (0000ms, 0702ms total)
T0F14 005:514 JLINK_ReadReg(FPS15)  returns 0x00000000 (0000ms, 0702ms total)
T0F14 005:514 JLINK_ReadReg(FPS16)  returns 0x00000000 (0000ms, 0702ms total)
T0F14 005:514 JLINK_ReadReg(FPS17)  returns 0x00000000 (0000ms, 0702ms total)
T0F14 005:514 JLINK_ReadReg(FPS18)  returns 0x00000000 (0000ms, 0702ms total)
T0F14 005:514 JLINK_ReadReg(FPS19)  returns 0x00000000 (0000ms, 0702ms total)
T0F14 005:514 JLINK_ReadReg(FPS20)  returns 0x00000000 (0000ms, 0702ms total)
T0F14 005:514 JLINK_ReadReg(FPS21)  returns 0x00000000 (0000ms, 0702ms total)
T0F14 005:514 JLINK_ReadReg(FPS22)  returns 0x00000000 (0000ms, 0702ms total)
T0F14 005:514 JLINK_ReadReg(FPS23)  returns 0x00000000 (0000ms, 0702ms total)
T0F14 005:514 JLINK_ReadReg(FPS24)  returns 0x00000000 (0000ms, 0702ms total)
T0F14 005:514 JLINK_ReadReg(FPS25)  returns 0x00000000 (0000ms, 0702ms total)
T0F14 005:514 JLINK_ReadReg(FPS26)  returns 0x00000000 (0000ms, 0702ms total)
T0F14 005:514 JLINK_ReadReg(FPS27)  returns 0x00000000 (0000ms, 0702ms total)
T0F14 005:514 JLINK_ReadReg(FPS28)  returns 0x00000000 (0000ms, 0702ms total)
T0F14 005:514 JLINK_ReadReg(FPS29)  returns 0x00000000 (0000ms, 0702ms total)
T0F14 005:514 JLINK_ReadReg(FPS30)  returns 0x00000000 (0000ms, 0702ms total)
T0F14 005:514 JLINK_ReadReg(FPS31)  returns 0x00000000 (0000ms, 0702ms total)
T114C 005:515 JLINK_ReadMem (0x2000065C, 0x0004 Bytes, ...) -- CPU_ReadMem(4 bytes @ 0x2000065C) - Data: B5 03 00 08  returns 0x00 (0000ms, 0702ms total)
T114C 005:515 JLINK_ReadMem (0x20000658, 0x0004 Bytes, ...) -- CPU_ReadMem(4 bytes @ 0x20000658) - Data: 00 00 00 00  returns 0x00 (0001ms, 0703ms total)
T114C 005:517 JLINK_ReadMemU32(0xE0001004, 0x0001 Items, ...) -- CPU_ReadMem(4 bytes @ 0xE0001004) - Data: 0F 04 00 00  returns 0x01 (0000ms, 0703ms total)
T114C 005:523 JLINK_ReadMem (0x0800032A, 0x0002 Bytes, ...) -- CPU_ReadMem(64 bytes @ 0x08000300) -- Updating DA cache (64 bytes @ 0x08000300) -- Read from DA cache (2 bytes @ 0x0800032A) - Data: 00 28  returns 0x00 (0001ms, 0704ms total)
T114C 005:524 JLINK_ReadMem (0x0800032C, 0x003C Bytes, ...) -- CPU_ReadMem(64 bytes @ 0x08000340) -- Updating DA cache (64 bytes @ 0x08000340) -- Read from DA cache (60 bytes @ 0x0800032C) - Data: 0D DB 0A 28 0B DC 2A B9 0B 6B 01 24 84 40 A3 43 ...  returns 0x00 (0001ms, 0705ms total)
T0F14 005:798 JLINK_Step() -- Read from DA cache (2 bytes @ 0x0800032A) -- Simulated  returns 0x00 (0000ms, 0705ms total)
T0F14 005:798 JLINK_ReadReg(R15 (PC))  returns 0x0800032C (0000ms, 0705ms total)
T0F14 005:798 JLINK_ReadReg(XPSR)  returns 0x21000000 (0000ms, 0705ms total)
T0F14 005:798 JLINK_Step() -- Read from DA cache (2 bytes @ 0x0800032C) -- Simulated  returns 0x00 (0000ms, 0705ms total)
T0F14 005:798 JLINK_ReadReg(R15 (PC))  returns 0x0800032E (0000ms, 0705ms total)
T0F14 005:798 JLINK_ReadReg(XPSR)  returns 0x21000000 (0000ms, 0705ms total)
T0F14 005:798 JLINK_Step() -- Read from DA cache (2 bytes @ 0x0800032E) -- Simulated  returns 0x00 (0001ms, 0706ms total)
T0F14 005:799 JLINK_ReadReg(R15 (PC))  returns 0x08000330 (0000ms, 0706ms total)
T0F14 005:799 JLINK_ReadReg(XPSR)  returns 0x81000000 (0000ms, 0706ms total)
T0F14 005:799 JLINK_Step() -- Read from DA cache (2 bytes @ 0x08000330) -- Simulated  returns 0x00 (0000ms, 0706ms total)
T0F14 005:799 JLINK_ReadReg(R15 (PC))  returns 0x08000332 (0000ms, 0706ms total)
T0F14 005:799 JLINK_ReadReg(XPSR)  returns 0x81000000 (0000ms, 0706ms total)
T0F14 005:799 JLINK_ReadReg(R0)  returns 0x00000005 (0000ms, 0706ms total)
T0F14 005:799 JLINK_ReadReg(R1)  returns 0x40023800 (0000ms, 0706ms total)
T0F14 005:799 JLINK_ReadReg(R2)  returns 0x00000001 (0000ms, 0706ms total)
T0F14 005:799 JLINK_ReadReg(R3)  returns 0x20000260 (0000ms, 0706ms total)
T0F14 005:799 JLINK_ReadReg(R4)  returns 0x00000000 (0000ms, 0706ms total)
T0F14 005:799 JLINK_ReadReg(R5)  returns 0x20000000 (0000ms, 0706ms total)
T0F14 005:799 JLINK_ReadReg(R6)  returns 0x00000000 (0000ms, 0706ms total)
T0F14 005:799 JLINK_ReadReg(R7)  returns 0x00000000 (0000ms, 0706ms total)
T0F14 005:799 JLINK_ReadReg(R8)  returns 0x00000000 (0000ms, 0706ms total)
T0F14 005:799 JLINK_ReadReg(R9)  returns 0x00000000 (0000ms, 0706ms total)
T0F14 005:799 JLINK_ReadReg(R10)  returns 0x080005CC (0000ms, 0706ms total)
T0F14 005:799 JLINK_ReadReg(R11)  returns 0x00000000 (0000ms, 0706ms total)
T0F14 005:799 JLINK_ReadReg(R12)  returns 0x20000040 (0000ms, 0706ms total)
T0F14 005:799 JLINK_ReadReg(R13 (SP))  returns 0x20000658 (0000ms, 0706ms total)
T0F14 005:799 JLINK_ReadReg(R14)  returns 0x080003B5 (0000ms, 0706ms total)
T0F14 005:799 JLINK_ReadReg(R15 (PC))  returns 0x08000332 (0000ms, 0706ms total)
T0F14 005:799 JLINK_ReadReg(XPSR)  returns 0x81000000 (0000ms, 0706ms total)
T0F14 005:799 JLINK_ReadReg(MSP)  returns 0x20000658 (0000ms, 0706ms total)
T0F14 005:799 JLINK_ReadReg(PSP)  returns 0x00000000 (0000ms, 0706ms total)
T0F14 005:799 JLINK_ReadReg(CFBP)  returns 0x04000000 (0000ms, 0706ms total)
T0F14 005:799 JLINK_ReadReg(FPSCR)  returns 0x03000000 (0000ms, 0706ms total)
T0F14 005:799 JLINK_ReadReg(FPS0)  returns 0x00000000 (0000ms, 0706ms total)
T0F14 005:799 JLINK_ReadReg(FPS1)  returns 0x00000000 (0000ms, 0706ms total)
T0F14 005:799 JLINK_ReadReg(FPS2)  returns 0x00000000 (0000ms, 0706ms total)
T0F14 005:799 JLINK_ReadReg(FPS3)  returns 0x00000000 (0000ms, 0706ms total)
T0F14 005:799 JLINK_ReadReg(FPS4)  returns 0x00000000 (0000ms, 0706ms total)
T0F14 005:799 JLINK_ReadReg(FPS5)  returns 0x00000000 (0000ms, 0706ms total)
T0F14 005:799 JLINK_ReadReg(FPS6)  returns 0x00000000 (0000ms, 0706ms total)
T0F14 005:799 JLINK_ReadReg(FPS7)  returns 0x00000000 (0000ms, 0706ms total)
T0F14 005:799 JLINK_ReadReg(FPS8)  returns 0x00000000 (0000ms, 0706ms total)
T0F14 005:799 JLINK_ReadReg(FPS9)  returns 0x00000000 (0000ms, 0706ms total)
T0F14 005:799 JLINK_ReadReg(FPS10)  returns 0x00000000 (0000ms, 0706ms total)
T0F14 005:799 JLINK_ReadReg(FPS11)  returns 0x00000000 (0000ms, 0706ms total)
T0F14 005:799 JLINK_ReadReg(FPS12)  returns 0x00000000 (0000ms, 0706ms total)
T0F14 005:799 JLINK_ReadReg(FPS13)  returns 0x00000000 (0000ms, 0706ms total)
T0F14 005:799 JLINK_ReadReg(FPS14)  returns 0x00000000 (0000ms, 0706ms total)
T0F14 005:799 JLINK_ReadReg(FPS15)  returns 0x00000000 (0000ms, 0706ms total)
T0F14 005:799 JLINK_ReadReg(FPS16)  returns 0x00000000 (0000ms, 0706ms total)
T0F14 005:799 JLINK_ReadReg(FPS17)  returns 0x00000000 (0000ms, 0706ms total)
T0F14 005:799 JLINK_ReadReg(FPS18)  returns 0x00000000 (0000ms, 0706ms total)
T0F14 005:799 JLINK_ReadReg(FPS19)  returns 0x00000000 (0000ms, 0706ms total)
T0F14 005:799 JLINK_ReadReg(FPS20)  returns 0x00000000 (0000ms, 0706ms total)
T0F14 005:799 JLINK_ReadReg(FPS21)  returns 0x00000000 (0000ms, 0706ms total)
T0F14 005:799 JLINK_ReadReg(FPS22)  returns 0x00000000 (0000ms, 0706ms total)
T0F14 005:799 JLINK_ReadReg(FPS23)  returns 0x00000000 (0000ms, 0706ms total)
T0F14 005:799 JLINK_ReadReg(FPS24)  returns 0x00000000 (0000ms, 0706ms total)
T0F14 005:799 JLINK_ReadReg(FPS25)  returns 0x00000000 (0000ms, 0706ms total)
T0F14 005:799 JLINK_ReadReg(FPS26)  returns 0x00000000 (0000ms, 0706ms total)
T0F14 005:799 JLINK_ReadReg(FPS27)  returns 0x00000000 (0000ms, 0706ms total)
T0F14 005:799 JLINK_ReadReg(FPS28)  returns 0x00000000 (0000ms, 0706ms total)
T0F14 005:799 JLINK_ReadReg(FPS29)  returns 0x00000000 (0000ms, 0706ms total)
T0F14 005:799 JLINK_ReadReg(FPS30)  returns 0x00000000 (0000ms, 0706ms total)
T0F14 005:799 JLINK_ReadReg(FPS31)  returns 0x00000000 (0000ms, 0706ms total)
T114C 005:801 JLINK_ReadMem (0x2000065C, 0x0004 Bytes, ...) -- CPU_ReadMem(4 bytes @ 0x2000065C) - Data: B5 03 00 08  returns 0x00 (0000ms, 0706ms total)
T114C 005:802 JLINK_ReadMem (0x20000658, 0x0004 Bytes, ...) -- CPU_ReadMem(4 bytes @ 0x20000658) - Data: 00 00 00 00  returns 0x00 (0000ms, 0706ms total)
T114C 005:802 JLINK_ReadMemU32(0xE0001004, 0x0001 Items, ...) - Data: 0F 04 00 00  returns 0x01 (0000ms, 0706ms total)
T114C 005:809 JLINK_ReadMem (0x08000332, 0x0002 Bytes, ...) -- Read from DA cache (2 bytes @ 0x08000332) - Data: 2A B9  returns 0x00 (0000ms, 0706ms total)
T114C 005:809 JLINK_ReadMem (0x08000334, 0x003C Bytes, ...) -- Read from DA cache (60 bytes @ 0x08000334) - Data: 0B 6B 01 24 84 40 A3 43 0B 63 04 E0 0B 6B 01 24 ...  returns 0x00 (0000ms, 0706ms total)
T0F14 005:990 JLINK_Step() -- Read from DA cache (2 bytes @ 0x08000332) -- Simulated  returns 0x00 (0000ms, 0706ms total)
T0F14 005:990 JLINK_ReadReg(R15 (PC))  returns 0x08000340 (0000ms, 0706ms total)
T0F14 005:990 JLINK_ReadReg(XPSR)  returns 0x81000000 (0000ms, 0706ms total)
T0F14 005:990 JLINK_ReadReg(R0)  returns 0x00000005 (0000ms, 0706ms total)
T0F14 005:990 JLINK_ReadReg(R1)  returns 0x40023800 (0000ms, 0706ms total)
T0F14 005:990 JLINK_ReadReg(R2)  returns 0x00000001 (0000ms, 0706ms total)
T0F14 005:990 JLINK_ReadReg(R3)  returns 0x20000260 (0000ms, 0706ms total)
T0F14 005:990 JLINK_ReadReg(R4)  returns 0x00000000 (0000ms, 0706ms total)
T0F14 005:990 JLINK_ReadReg(R5)  returns 0x20000000 (0000ms, 0706ms total)
T0F14 005:990 JLINK_ReadReg(R6)  returns 0x00000000 (0000ms, 0706ms total)
T0F14 005:990 JLINK_ReadReg(R7)  returns 0x00000000 (0000ms, 0706ms total)
T0F14 005:990 JLINK_ReadReg(R8)  returns 0x00000000 (0000ms, 0706ms total)
T0F14 005:990 JLINK_ReadReg(R9)  returns 0x00000000 (0000ms, 0706ms total)
T0F14 005:990 JLINK_ReadReg(R10)  returns 0x080005CC (0000ms, 0706ms total)
T0F14 005:990 JLINK_ReadReg(R11)  returns 0x00000000 (0000ms, 0706ms total)
T0F14 005:990 JLINK_ReadReg(R12)  returns 0x20000040 (0000ms, 0706ms total)
T0F14 005:990 JLINK_ReadReg(R13 (SP))  returns 0x20000658 (0000ms, 0706ms total)
T0F14 005:990 JLINK_ReadReg(R14)  returns 0x080003B5 (0000ms, 0706ms total)
T0F14 005:990 JLINK_ReadReg(R15 (PC))  returns 0x08000340 (0000ms, 0706ms total)
T0F14 005:990 JLINK_ReadReg(XPSR)  returns 0x81000000 (0000ms, 0706ms total)
T0F14 005:990 JLINK_ReadReg(MSP)  returns 0x20000658 (0000ms, 0706ms total)
T0F14 005:990 JLINK_ReadReg(PSP)  returns 0x00000000 (0000ms, 0706ms total)
T0F14 005:990 JLINK_ReadReg(CFBP)  returns 0x04000000 (0000ms, 0706ms total)
T0F14 005:990 JLINK_ReadReg(FPSCR)  returns 0x03000000 (0000ms, 0706ms total)
T0F14 005:990 JLINK_ReadReg(FPS0)  returns 0x00000000 (0000ms, 0706ms total)
T0F14 005:990 JLINK_ReadReg(FPS1)  returns 0x00000000 (0000ms, 0706ms total)
T0F14 005:990 JLINK_ReadReg(FPS2)  returns 0x00000000 (0000ms, 0706ms total)
T0F14 005:990 JLINK_ReadReg(FPS3)  returns 0x00000000 (0000ms, 0706ms total)
T0F14 005:990 JLINK_ReadReg(FPS4)  returns 0x00000000 (0000ms, 0706ms total)
T0F14 005:990 JLINK_ReadReg(FPS5)  returns 0x00000000 (0000ms, 0706ms total)
T0F14 005:990 JLINK_ReadReg(FPS6)  returns 0x00000000 (0000ms, 0706ms total)
T0F14 005:990 JLINK_ReadReg(FPS7)  returns 0x00000000 (0000ms, 0706ms total)
T0F14 005:990 JLINK_ReadReg(FPS8)  returns 0x00000000 (0000ms, 0706ms total)
T0F14 005:990 JLINK_ReadReg(FPS9)  returns 0x00000000 (0000ms, 0706ms total)
T0F14 005:990 JLINK_ReadReg(FPS10)  returns 0x00000000 (0000ms, 0706ms total)
T0F14 005:990 JLINK_ReadReg(FPS11)  returns 0x00000000 (0000ms, 0706ms total)
T0F14 005:990 JLINK_ReadReg(FPS12)  returns 0x00000000 (0000ms, 0706ms total)
T0F14 005:990 JLINK_ReadReg(FPS13)  returns 0x00000000 (0000ms, 0706ms total)
T0F14 005:990 JLINK_ReadReg(FPS14)  returns 0x00000000 (0000ms, 0706ms total)
T0F14 005:990 JLINK_ReadReg(FPS15)  returns 0x00000000 (0000ms, 0706ms total)
T0F14 005:990 JLINK_ReadReg(FPS16)  returns 0x00000000 (0000ms, 0706ms total)
T0F14 005:990 JLINK_ReadReg(FPS17)  returns 0x00000000 (0000ms, 0706ms total)
T0F14 005:990 JLINK_ReadReg(FPS18)  returns 0x00000000 (0000ms, 0706ms total)
T0F14 005:990 JLINK_ReadReg(FPS19)  returns 0x00000000 (0000ms, 0706ms total)
T0F14 005:990 JLINK_ReadReg(FPS20)  returns 0x00000000 (0000ms, 0706ms total)
T0F14 005:990 JLINK_ReadReg(FPS21)  returns 0x00000000 (0000ms, 0706ms total)
T0F14 005:990 JLINK_ReadReg(FPS22)  returns 0x00000000 (0000ms, 0706ms total)
T0F14 005:990 JLINK_ReadReg(FPS23)  returns 0x00000000 (0000ms, 0706ms total)
T0F14 005:990 JLINK_ReadReg(FPS24)  returns 0x00000000 (0000ms, 0706ms total)
T0F14 005:990 JLINK_ReadReg(FPS25)  returns 0x00000000 (0000ms, 0706ms total)
T0F14 005:990 JLINK_ReadReg(FPS26)  returns 0x00000000 (0000ms, 0706ms total)
T0F14 005:990 JLINK_ReadReg(FPS27)  returns 0x00000000 (0000ms, 0706ms total)
T0F14 005:990 JLINK_ReadReg(FPS28)  returns 0x00000000 (0000ms, 0706ms total)
T0F14 005:990 JLINK_ReadReg(FPS29)  returns 0x00000000 (0001ms, 0707ms total)
T0F14 005:991 JLINK_ReadReg(FPS30)  returns 0x00000000 (0000ms, 0707ms total)
T0F14 005:991 JLINK_ReadReg(FPS31)  returns 0x00000000 (0000ms, 0707ms total)
T114C 005:992 JLINK_ReadMem (0x2000065C, 0x0004 Bytes, ...) -- CPU_ReadMem(4 bytes @ 0x2000065C) - Data: B5 03 00 08  returns 0x00 (0001ms, 0708ms total)
T114C 005:993 JLINK_ReadMem (0x20000658, 0x0004 Bytes, ...) -- CPU_ReadMem(4 bytes @ 0x20000658) - Data: 00 00 00 00  returns 0x00 (0001ms, 0709ms total)
T114C 005:994 JLINK_ReadMemU32(0xE0001004, 0x0001 Items, ...) - Data: 0F 04 00 00  returns 0x01 (0000ms, 0709ms total)
T114C 005:995 JLINK_ReadMem (0x08000334, 0x003C Bytes, ...) -- Read from DA cache (60 bytes @ 0x08000334) - Data: 0B 6B 01 24 84 40 A3 43 0B 63 04 E0 0B 6B 01 24 ...  returns 0x00 (0000ms, 0709ms total)
T0F14 006:180 JLINK_Step() -- Read from DA cache (2 bytes @ 0x08000340) -- Not simulated -- CPU_WriteMem(4 bytes @ 0xE0001004)  returns 0x00 (0004ms, 0713ms total)
T0F14 006:184 JLINK_ReadReg(R15 (PC))  returns 0x08000342 (0000ms, 0713ms total)
T0F14 006:184 JLINK_ReadReg(XPSR)  returns 0x81000000 (0000ms, 0713ms total)
T0F14 006:184 JLINK_Step() -- CPU_ReadMem(64 bytes @ 0x08000340) -- Updating DA cache (64 bytes @ 0x08000340) -- Read from DA cache (2 bytes @ 0x08000342) -- CPU_ReadMem(4 bytes @ 0xE0001004) -- Simulated  returns 0x00 (0002ms, 0715ms total)
T0F14 006:186 JLINK_ReadReg(R15 (PC))  returns 0x08000344 (0000ms, 0715ms total)
T0F14 006:186 JLINK_ReadReg(XPSR)  returns 0x01000000 (0000ms, 0715ms total)
T0F14 006:186 JLINK_Step() -- Read from DA cache (2 bytes @ 0x08000344) -- Simulated  returns 0x00 (0000ms, 0715ms total)
T0F14 006:186 JLINK_ReadReg(R15 (PC))  returns 0x08000346 (0000ms, 0715ms total)
T0F14 006:186 JLINK_ReadReg(XPSR)  returns 0x01000000 (0000ms, 0715ms total)
T0F14 006:186 JLINK_Step() -- Read from DA cache (2 bytes @ 0x08000346) -- Simulated  returns 0x00 (0000ms, 0715ms total)
T0F14 006:186 JLINK_ReadReg(R15 (PC))  returns 0x08000348 (0000ms, 0715ms total)
T0F14 006:186 JLINK_ReadReg(XPSR)  returns 0x01000000 (0000ms, 0715ms total)
T0F14 006:186 JLINK_Step() -- Read from DA cache (2 bytes @ 0x08000348) -- Not simulated -- CPU_WriteMem(4 bytes @ 0xE0001004)  returns 0x00 (0005ms, 0720ms total)
T0F14 006:191 JLINK_ReadReg(R15 (PC))  returns 0x0800034A (0000ms, 0720ms total)
T0F14 006:191 JLINK_ReadReg(XPSR)  returns 0x01000000 (0000ms, 0720ms total)
T0F14 006:191 JLINK_ReadReg(R0)  returns 0x00000005 (0000ms, 0720ms total)
T0F14 006:191 JLINK_ReadReg(R1)  returns 0x40023800 (0000ms, 0720ms total)
T0F14 006:191 JLINK_ReadReg(R2)  returns 0x00000001 (0000ms, 0720ms total)
T0F14 006:191 JLINK_ReadReg(R3)  returns 0x00100020 (0000ms, 0720ms total)
T0F14 006:191 JLINK_ReadReg(R4)  returns 0x00000020 (0000ms, 0720ms total)
T0F14 006:191 JLINK_ReadReg(R5)  returns 0x20000000 (0000ms, 0720ms total)
T0F14 006:191 JLINK_ReadReg(R6)  returns 0x00000000 (0000ms, 0720ms total)
T0F14 006:191 JLINK_ReadReg(R7)  returns 0x00000000 (0000ms, 0720ms total)
T0F14 006:191 JLINK_ReadReg(R8)  returns 0x00000000 (0000ms, 0720ms total)
T0F14 006:191 JLINK_ReadReg(R9)  returns 0x00000000 (0000ms, 0720ms total)
T0F14 006:191 JLINK_ReadReg(R10)  returns 0x080005CC (0000ms, 0720ms total)
T0F14 006:191 JLINK_ReadReg(R11)  returns 0x00000000 (0000ms, 0720ms total)
T0F14 006:191 JLINK_ReadReg(R12)  returns 0x20000040 (0000ms, 0720ms total)
T0F14 006:191 JLINK_ReadReg(R13 (SP))  returns 0x20000658 (0000ms, 0720ms total)
T0F14 006:191 JLINK_ReadReg(R14)  returns 0x080003B5 (0000ms, 0720ms total)
T0F14 006:191 JLINK_ReadReg(R15 (PC))  returns 0x0800034A (0000ms, 0720ms total)
T0F14 006:191 JLINK_ReadReg(XPSR)  returns 0x01000000 (0000ms, 0720ms total)
T0F14 006:191 JLINK_ReadReg(MSP)  returns 0x20000658 (0000ms, 0720ms total)
T0F14 006:191 JLINK_ReadReg(PSP)  returns 0x00000000 (0000ms, 0720ms total)
T0F14 006:191 JLINK_ReadReg(CFBP)  returns 0x04000000 (0000ms, 0720ms total)
T0F14 006:191 JLINK_ReadReg(FPSCR)  returns 0x03000000 (0004ms, 0724ms total)
T0F14 006:195 JLINK_ReadReg(FPS0)  returns 0x00000000 (0000ms, 0724ms total)
T0F14 006:195 JLINK_ReadReg(FPS1)  returns 0x00000000 (0000ms, 0724ms total)
T0F14 006:195 JLINK_ReadReg(FPS2)  returns 0x00000000 (0000ms, 0724ms total)
T0F14 006:195 JLINK_ReadReg(FPS3)  returns 0x00000000 (0000ms, 0724ms total)
T0F14 006:195 JLINK_ReadReg(FPS4)  returns 0x00000000 (0000ms, 0724ms total)
T0F14 006:195 JLINK_ReadReg(FPS5)  returns 0x00000000 (0000ms, 0724ms total)
T0F14 006:195 JLINK_ReadReg(FPS6)  returns 0x00000000 (0000ms, 0724ms total)
T0F14 006:195 JLINK_ReadReg(FPS7)  returns 0x00000000 (0000ms, 0724ms total)
T0F14 006:195 JLINK_ReadReg(FPS8)  returns 0x00000000 (0000ms, 0724ms total)
T0F14 006:195 JLINK_ReadReg(FPS9)  returns 0x00000000 (0000ms, 0724ms total)
T0F14 006:195 JLINK_ReadReg(FPS10)  returns 0x00000000 (0000ms, 0724ms total)
